time	V(out_pos,out_neg)	I(R1)	I(Vcell12)	I(Vcell22)
0.000000000000000e+00	5.240440e-04	1.449010e-11	-2.619927e-07	-2.619851e-07
9.999999439624929e-11	5.238056e-04	-4.222667e-10	-2.599790e-07	-2.623360e-07
1.999999887924986e-10	5.238056e-04	-8.461535e-10	-2.580895e-07	-2.626197e-07
1.599999910339989e-09	5.240440e-04	-6.659465e-09	-2.319285e-07	-2.659735e-07
3.199999820679977e-09	5.240440e-04	-1.322947e-08	-2.023589e-07	-2.697263e-07
6.399999641359955e-09	5.245209e-04	-2.613754e-08	-1.442077e-07	-2.771746e-07
1.279999928271991e-08	5.264282e-04	-5.105523e-08	-3.176513e-08	-2.918604e-07
2.559999856543982e-08	5.328655e-04	-9.772023e-08	1.783488e-07	-3.203940e-07
4.773972022453567e-08	5.502701e-04	-1.695644e-07	4.986032e-07	-3.672011e-07
6.859391818523896e-08	5.719662e-04	-2.194465e-07	7.261833e-07	-4.058559e-07
7.916399808788568e-08	5.841255e-04	-2.160111e-07	7.216448e-07	-4.149449e-07
8.830213857247675e-08	5.934238e-04	-1.678754e-07	4.919022e-07	-4.025027e-07
9.753243459051474e-08	5.984306e-04	-7.553839e-08	3.978293e-08	-3.702695e-07
1.092981526985289e-07	5.970001e-04	6.916272e-08	-6.361551e-07	-3.201152e-07
1.223870536906656e-07	5.836487e-04	2.315396e-07	-1.367414e-06	-2.660690e-07
1.410673768188915e-07	5.445480e-04	4.483781e-07	-2.326339e-06	-1.981154e-07
1.647015190700986e-07	4.696846e-04	6.934273e-07	-3.385053e-06	-1.346240e-07
1.892727016690357e-07	3.664494e-04	9.035705e-07	-4.265196e-06	-1.157837e-07
2.182022239948764e-07	2.226830e-04	1.083501e-06	-4.965694e-06	-1.630538e-07
2.459164263030971e-07	7.438660e-05	1.183914e-06	-5.273590e-06	-2.375270e-07
2.847883842341647e-07	-1.337528e-04	1.244584e-06	-5.321726e-06	-2.765740e-07
3.327843777557047e-07	-3.783703e-04	1.273824e-06	-5.187601e-06	-2.119067e-07
3.961426398570465e-07	-6.721020e-04	1.294457e-06	-4.994395e-06	-1.238651e-07
5.059969040551648e-07	-1.116037e-03	1.323820e-06	-4.682082e-06	1.123369e-08
6.383557062989386e-07	-1.559258e-03	1.355235e-06	-4.357155e-06	1.450563e-07
7.978042824028950e-07	-1.978040e-03	1.389478e-06	-4.033542e-06	2.700832e-07
9.654181377609170e-07	-2.303243e-03	1.422315e-06	-3.759378e-06	3.666669e-07
1.181880715930013e-06	-2.586842e-03	1.460990e-06	-3.482584e-06	4.501464e-07
1.441325178184887e-06	-2.782702e-03	1.503068e-06	-3.236132e-06	5.043715e-07
1.787599079725870e-06	-2.882481e-03	1.553605e-06	-3.005909e-06	5.236706e-07
2.193419844061056e-06	-2.858877e-03	1.606409e-06	-2.828082e-06	4.982733e-07
2.697936149733176e-06	-2.717376e-03	1.664156e-06	-2.686456e-06	4.292694e-07
3.317898973489038e-06	-2.481341e-03	1.725338e-06	-2.576357e-06	3.225103e-07
4.187872371711282e-06	-2.147913e-03	1.796639e-06	-2.477052e-06	1.705062e-07
5.484256424872289e-06	-1.730561e-03	1.881361e-06	-2.378398e-06	-2.529464e-08
6.965919620278754e-06	-1.376748e-03	1.956048e-06	-2.297478e-06	-1.968557e-07
8.444029521974493e-06	-1.134872e-03	2.012279e-06	-2.234618e-06	-3.237814e-07
1.000029966274071e-05	-9.646416e-04	2.056936e-06	-2.181617e-06	-4.243970e-07
1.162767073470291e-05	-8.459091e-04	2.092219e-06	-2.138141e-06	-5.037614e-07
1.340845046790512e-05	-7.605553e-04	2.121242e-06	-2.100671e-06	-5.689926e-07
1.525131669288096e-05	-7.032156e-04	2.143642e-06	-2.070376e-06	-6.193796e-07
1.722217742477168e-05	-6.648302e-04	2.161257e-06	-2.045744e-06	-6.594325e-07
1.927566878514449e-05	-6.408691e-04	2.174522e-06	-2.027811e-06	-6.899807e-07
2.146052610749650e-05	-6.271601e-04	2.184438e-06	-2.018394e-06	-7.132546e-07
2.372795249105345e-05	-6.222725e-04	2.191385e-06	-2.023198e-06	-7.296449e-07
2.610947149401537e-05	-6.254911e-04	2.196013e-06	-2.053676e-06	-7.400449e-07
2.855363634127071e-05	-6.381273e-04	2.198737e-06	-2.129251e-06	-7.441629e-07
3.104791407797694e-05	-6.625652e-04	2.200047e-06	-2.277203e-06	-7.414628e-07
3.353209670602285e-05	-7.007122e-04	2.200383e-06	-2.516682e-06	-7.314072e-07
3.591554528374917e-05	-7.514954e-04	2.200137e-06	-2.838285e-06	-7.149114e-07
3.851101180365260e-05	-8.206367e-04	2.199526e-06	-3.273718e-06	-6.903679e-07
4.135799056102331e-05	-9.076595e-04	2.198683e-06	-3.815984e-06	-6.580497e-07
4.470152563069708e-05	-1.015663e-03	2.197632e-06	-4.484576e-06	-6.166022e-07
4.826585521653308e-05	-1.130223e-03	2.196537e-06	-5.184914e-06	-5.719595e-07
5.203363296735238e-05	-1.244068e-03	2.195446e-06	-5.876660e-06	-5.268553e-07
5.639931776897996e-05	-1.362681e-03	2.194259e-06	-6.595739e-06	-4.789603e-07
6.145082629856205e-05	-1.481056e-03	2.192950e-06	-7.310211e-06	-4.300125e-07
6.761740143715389e-05	-1.599908e-03	2.191385e-06	-8.020682e-06	-3.794393e-07
7.522599342952365e-05	-1.714587e-03	2.189435e-06	-8.682979e-06	-3.292374e-07
8.293221292980577e-05	-1.799822e-03	2.187402e-06	-9.151352e-06	-2.900451e-07
9.135943145331281e-05	-1.862407e-03	2.185097e-06	-9.473668e-06	-2.582509e-07
9.978578216753554e-05	-1.898527e-03	2.182705e-06	-9.627689e-06	-2.364387e-07
1.114843930811076e-04	-1.916766e-03	2.179256e-06	-9.629825e-06	-2.193565e-07
1.128403450077629e-04	-1.916409e-03	2.178844e-06	-9.619086e-06	-2.180640e-07
1.133766904625367e-04	-1.587272e-03	2.178647e-06	-9.614389e-06	-2.176047e-07
1.135932581895663e-04	-5.700588e-04	2.178480e-06	-1.207053e-05	-5.524067e-07
1.136796640012943e-04	8.680820e-04	2.178308e-06	-1.718024e-05	-1.114501e-06
1.137675251812396e-04	3.508925e-03	2.177994e-06	-2.109783e-05	-2.139737e-06
1.138534704746610e-04	6.647348e-03	2.177578e-06	-2.354754e-05	-3.319309e-06
1.139396792057685e-04	9.891987e-03	2.177069e-06	-2.543915e-05	-4.513599e-06
1.140667660485040e-04	1.444280e-02	2.176163e-06	-2.788692e-05	-6.195851e-06
1.142968256847869e-04	2.192116e-02	2.174179e-06	-3.179378e-05	-8.958379e-06
1.145879266931335e-04	3.017199e-02	2.171136e-06	-3.605541e-05	-1.196550e-05
1.149249080018558e-04	3.814352e-02	2.166906e-06	-4.016778e-05	-1.486609e-05
1.153542636412744e-04	4.623640e-02	2.160549e-06	-4.438485e-05	-1.782630e-05
1.159338104240934e-04	5.465388e-02	2.150728e-06	-4.867080e-05	-2.081404e-05
1.164464845074049e-04	6.018150e-02	2.141015e-06	-5.145476e-05	-2.272142e-05
1.170802282180767e-04	6.514680e-02	2.127913e-06	-5.398942e-05	-2.441173e-05
1.176548441608559e-04	6.848168e-02	2.115248e-06	-5.568578e-05	-2.546349e-05
1.183141707046900e-04	7.146806e-02	2.100062e-06	-5.659399e-05	-2.626006e-05
1.187093969457922e-04	7.300359e-02	2.090741e-06	-5.448462e-05	-2.656843e-05
1.191023015714537e-04	7.443696e-02	2.081347e-06	-5.604939e-05	-2.664886e-05
1.197556830197673e-04	7.719177e-02	2.065681e-06	-5.501742e-05	-2.630790e-05
1.204345562025630e-04	8.188170e-02	2.049880e-06	-5.806243e-05	-2.485344e-05
1.214169652994564e-04	9.485155e-02	2.029182e-06	-6.173473e-05	-1.992269e-05
1.224709178752973e-04	1.195887e-01	2.011252e-06	-7.513633e-05	-1.220923e-05
1.237611174996970e-04	1.629068e-01	1.994767e-06	-9.616281e-05	-6.524292e-06
1.245410558662275e-04	1.941912e-01	1.987112e-06	-1.139529e-04	-5.718256e-06
1.254211536774987e-04	2.327318e-01	1.980089e-06	-1.316395e-04	-4.773629e-06
1.265014671051957e-04	2.825441e-01	1.972825e-06	-1.580679e-04	-4.010137e-06
1.281881599892408e-04	3.636465e-01	1.963298e-06	-1.972767e-04	-3.181872e-06
1.291313580988051e-04	4.104639e-01	1.958770e-06	-2.225040e-04	-2.907078e-06
1.299062741475774e-04	4.498224e-01	1.955533e-06	-2.407146e-04	-2.661366e-06
1.303773497815594e-04	4.740517e-01	1.953726e-06	-2.544641e-04	-2.555444e-06
1.307288771015709e-04	4.922841e-01	1.952459e-06	-2.620373e-04	-2.463692e-06
1.310048970856986e-04	5.066779e-01	1.951506e-06	-2.708255e-04	-2.408158e-06
1.312469381588373e-04	5.193508e-01	1.950699e-06	-2.756081e-04	-2.350875e-06
1.314692152051556e-04	5.310268e-01	1.949979e-06	-2.830256e-04	-2.309935e-06
1.317006954181574e-04	5.432197e-01	1.949252e-06	-2.875664e-04	-2.257262e-06
1.319512489307839e-04	5.564465e-01	1.948487e-06	-2.957552e-04	-2.212990e-06
1.321961528421937e-04	5.693935e-01	1.947762e-06	-3.006707e-04	-2.158785e-06
1.324460280731880e-04	5.826045e-01	1.947045e-06	-3.088434e-04	-2.114629e-06
1.326962719191776e-04	5.958072e-01	1.946350e-06	-3.138758e-04	-2.056562e-06
1.329493068993621e-04	6.090809e-01	1.945671e-06	-3.220607e-04	-2.005023e-06
1.332068614531758e-04	6.224360e-01	1.945005e-06	-3.271405e-04	-1.932314e-06
1.334723411539832e-04	6.359150e-01	1.944347e-06	-3.353823e-04	-1.855673e-06
1.337525657967201e-04	6.496398e-01	1.943690e-06	-3.405806e-04	-1.742361e-06
1.340592896659981e-04	6.638026e-01	1.943019e-06	-3.490781e-04	-1.605898e-06
1.344219762736118e-04	6.790497e-01	1.942302e-06	-3.549555e-04	-1.408427e-06
1.349133927092061e-04	6.968874e-01	1.941467e-06	-3.652934e-04	-1.163607e-06
1.357579583514553e-04	7.225208e-01	1.940289e-06	-3.761402e-04	-8.512639e-07
1.366379114796035e-04	7.449877e-01	1.939307e-06	-3.885397e-04	-7.135087e-07
1.376371241102934e-04	7.669461e-01	1.938441e-06	-3.977597e-04	-5.983362e-07
1.391104359497940e-04	7.959259e-01	1.937481e-06	-4.138050e-04	-5.265495e-07
1.413384255901111e-04	8.364275e-01	1.936440e-06	-4.323444e-04	-4.480182e-07
1.436296626980209e-04	8.758867e-01	1.935713e-06	-4.535443e-04	-4.172919e-07
1.461286833027803e-04	9.173949e-01	1.935201e-06	-4.726312e-04	-3.732056e-07
1.486968441754560e-04	9.590606e-01	1.934871e-06	-4.950235e-04	-3.571654e-07
1.519100146215725e-04	1.010305e+00	1.934631e-06	-5.190229e-04	-3.202044e-07
1.556618981244390e-04	1.069354e+00	1.934495e-06	-5.501197e-04	-3.043698e-07
1.605497342499319e-04	1.145451e+00	1.934462e-06	-5.865478e-04	-2.670261e-07
1.666591930047695e-04	1.239724e+00	1.934569e-06	-6.352617e-04	-2.480469e-07
1.753692348894521e-04	1.373159e+00	1.934900e-06	-7.003487e-04	-2.054689e-07
1.853692348894521e-04	1.525523e+00	1.935450e-06	-7.780692e-04	-1.849309e-07
1.953692348894521e-04	1.677259e+00	1.936135e-06	-8.522902e-04	-1.508264e-07
2.053692348894521e-04	1.828530e+00	1.936915e-06	-9.294864e-04	-1.395788e-07
2.153692348894520e-04	1.979439e+00	1.937757e-06	-1.003314e-03	-1.125937e-07
2.253692348894520e-04	2.130045e+00	1.938635e-06	-1.080190e-03	-1.066376e-07
2.353692348894520e-04	2.280385e+00	1.939529e-06	-1.153741e-03	-8.402864e-08
2.453692348894521e-04	2.430483e+00	1.940426e-06	-1.230368e-03	-8.129809e-08
2.553692348894520e-04	2.580356e+00	1.941314e-06	-1.303689e-03	-6.183313e-08
2.653692348894521e-04	2.730016e+00	1.942183e-06	-1.380100e-03	-6.141946e-08
2.753692348894520e-04	2.879504e+00	1.943032e-06	-1.453216e-03	-4.404114e-08
2.789494249047837e-04	2.929258e+00	1.943749e-06	-1.481538e-03	-5.020390e-08
2.800788449631534e-04	2.939104e+00	1.944603e-06	-1.482642e-03	8.574000e-08
2.807243462558449e-04	2.941091e+00	1.945448e-06	-1.485042e-03	2.425889e-08
2.809554594004948e-04	2.941417e+00	1.945767e-06	-1.483198e-03	7.451668e-08
2.812234256216795e-04	2.941732e+00	1.946120e-06	-1.485273e-03	3.838970e-08
2.816346109147094e-04	2.942173e+00	1.946638e-06	-1.483487e-03	6.581894e-08
2.820131815538869e-04	2.942542e+00	1.947086e-06	-1.485571e-03	4.183208e-08
2.827703228322419e-04	2.943216e+00	1.947908e-06	-1.483865e-03	6.042374e-08
2.835520348890350e-04	2.943858e+00	1.948658e-06	-1.486036e-03	4.024825e-08
2.851154590026214e-04	2.945048e+00	1.949916e-06	-1.484497e-03	5.500991e-08
2.869349564686476e-04	2.946362e+00	1.951094e-06	-1.486884e-03	3.592150e-08
2.891829846895448e-04	2.947920e+00	1.952209e-06	-1.485460e-03	5.071833e-08
2.917527349493735e-04	2.949652e+00	1.953164e-06	-1.487989e-03	3.397490e-08
2.952139041027549e-04	2.951934e+00	1.954124e-06	-1.486817e-03	4.975406e-08
2.991399639665195e-04	2.954476e+00	1.954955e-06	-1.489638e-03	3.517294e-08
3.044769896562687e-04	2.957871e+00	1.955851e-06	-1.488877e-03	5.226062e-08
3.110975780938203e-04	2.962005e+00	1.956797e-06	-1.492297e-03	3.959543e-08
3.196600519425634e-04	2.967241e+00	1.957901e-06	-1.492260e-03	5.793042e-08
3.296600519425634e-04	2.973219e+00	1.959117e-06	-1.496445e-03	4.633343e-08
3.396600519425634e-04	2.979054e+00	1.960286e-06	-1.496738e-03	6.438962e-08
3.496600519425634e-04	2.984747e+00	1.961416e-06	-1.500922e-03	5.223813e-08
3.596600519425634e-04	2.990303e+00	1.962506e-06	-1.501206e-03	6.947882e-08
3.696600519425634e-04	2.995725e+00	1.963554e-06	-1.505372e-03	5.687919e-08
3.796600519425633e-04	3.001018e+00	1.964557e-06	-1.505629e-03	7.343336e-08
3.896600519425634e-04	3.006186e+00	1.965511e-06	-1.509761e-03	6.035519e-08
3.996600519425633e-04	3.011231e+00	1.966416e-06	-1.509979e-03	7.660894e-08
4.096600519425634e-04	3.016158e+00	1.967270e-06	-1.514066e-03	6.300810e-08
4.196600519425633e-04	3.020970e+00	1.968073e-06	-1.514234e-03	7.902192e-08
4.296600519425634e-04	3.025669e+00	1.968823e-06	-1.518269e-03	6.498033e-08
4.396600519425633e-04	3.030260e+00	1.969522e-06	-1.518382e-03	8.067492e-08
4.496600519425634e-04	3.034745e+00	1.970169e-06	-1.522358e-03	6.650175e-08
4.596600519425633e-04	3.039127e+00	1.970765e-06	-1.522410e-03	8.179823e-08
4.696600519425634e-04	3.043410e+00	1.971311e-06	-1.526325e-03	6.752682e-08
4.796600519425633e-04	3.047595e+00	1.971807e-06	-1.526314e-03	8.246402e-08
4.896600519425634e-04	3.051686e+00	1.972255e-06	-1.530165e-03	6.812208e-08
4.996600519425634e-04	3.055686e+00	1.972655e-06	-1.530090e-03	8.273070e-08
5.096600519425633e-04	3.059596e+00	1.973010e-06	-1.533877e-03	6.833967e-08
5.196600519425633e-04	3.063420e+00	1.973319e-06	-1.533737e-03	8.264472e-08
5.296600519425634e-04	3.067160e+00	1.973585e-06	-1.537459e-03	6.822135e-08
5.396600519425634e-04	3.070818e+00	1.973809e-06	-1.537256e-03	8.224362e-08
5.496600519425633e-04	3.074396e+00	1.973992e-06	-1.540914e-03	6.780125e-08
5.596600519425633e-04	3.077898e+00	1.974135e-06	-1.540648e-03	8.155835e-08
5.696600519425634e-04	3.081324e+00	1.974240e-06	-1.544244e-03	6.710774e-08
5.796600519425634e-04	3.084677e+00	1.974308e-06	-1.543916e-03	8.061487e-08
5.896600519425633e-04	3.087959e+00	1.974341e-06	-1.547451e-03	6.616495e-08
5.996600519425633e-04	3.091172e+00	1.974339e-06	-1.547063e-03	7.943549e-08
6.096600519425634e-04	3.094318e+00	1.974304e-06	-1.550540e-03	6.499376e-08
6.196600519425634e-04	3.097399e+00	1.974237e-06	-1.550094e-03	7.803968e-08
6.296600519425633e-04	3.100416e+00	1.974140e-06	-1.553514e-03	6.361261e-08
6.396600519425633e-04	3.103371e+00	1.974013e-06	-1.553013e-03	7.644480e-08
6.496600519425634e-04	3.106266e+00	1.973858e-06	-1.556377e-03	6.203810e-08
6.596600519425634e-04	3.109103e+00	1.973675e-06	-1.555822e-03	7.466658e-08
6.696600519425633e-04	3.111883e+00	1.973467e-06	-1.559134e-03	6.028532e-08
6.796600519425633e-04	3.114607e+00	1.973234e-06	-1.558527e-03	7.271942e-08
6.896600519425633e-04	3.117277e+00	1.972976e-06	-1.561789e-03	5.836802e-08
6.996600519425634e-04	3.119895e+00	1.972696e-06	-1.561133e-03	7.067755e-08
7.096600519425633e-04	3.122461e+00	1.972394e-06	-1.564346e-03	5.623961e-08
7.196600519425633e-04	3.124978e+00	1.972070e-06	-1.563642e-03	6.848770e-08
7.296600519425633e-04	3.127446e+00	1.971726e-06	-1.566809e-03	5.403253e-08
7.396600519425634e-04	3.129866e+00	1.971363e-06	-1.566060e-03	6.610639e-08
7.496600519425633e-04	3.132241e+00	1.970982e-06	-1.569183e-03	5.169736e-08
7.596600519425633e-04	3.134571e+00	1.970583e-06	-1.568390e-03	6.360453e-08
7.696600519425633e-04	3.136858e+00	1.970167e-06	-1.571470e-03	4.924485e-08
7.796600519425634e-04	3.139101e+00	1.969734e-06	-1.570637e-03	6.099241e-08
7.896600519425633e-04	3.141303e+00	1.969287e-06	-1.573676e-03	4.668504e-08
7.996600519425633e-04	3.143465e+00	1.968824e-06	-1.572803e-03	5.827971e-08
8.096600519425633e-04	3.145587e+00	1.968348e-06	-1.575804e-03	4.402753e-08
8.196600519425634e-04	3.147671e+00	1.967858e-06	-1.574893e-03	5.543102e-08
8.296600519425633e-04	3.149717e+00	1.967356e-06	-1.577857e-03	4.132526e-08
8.396600519425633e-04	3.151727e+00	1.966841e-06	-1.576910e-03	5.250261e-08
8.496600519425633e-04	3.153701e+00	1.966315e-06	-1.579838e-03	3.853960e-08
8.596600519425634e-04	3.155640e+00	1.965778e-06	-1.578857e-03	4.950225e-08
8.696600519425633e-04	3.157545e+00	1.965230e-06	-1.581752e-03	3.563818e-08
8.796600519425633e-04	3.159418e+00	1.964673e-06	-1.580737e-03	4.647728e-08
8.896600519425633e-04	3.161257e+00	1.964106e-06	-1.583600e-03	3.267249e-08
8.996600519425634e-04	3.163066e+00	1.963530e-06	-1.582555e-03	4.339231e-08
9.096600519425633e-04	3.164843e+00	1.962946e-06	-1.585387e-03	2.964889e-08
9.196600519425633e-04	3.166591e+00	1.962354e-06	-1.584311e-03	4.025437e-08
9.296600519425633e-04	3.168309e+00	1.961755e-06	-1.587114e-03	2.657405e-08
9.396600519425634e-04	3.169999e+00	1.961149e-06	-1.586010e-03	3.706988e-08
9.496600519425633e-04	3.171660e+00	1.960536e-06	-1.588785e-03	2.345425e-08
9.596600519425633e-04	3.173295e+00	1.959917e-06	-1.587653e-03	3.384487e-08
9.696600519425633e-04	3.174902e+00	1.959291e-06	-1.590402e-03	2.029537e-08
9.796600519425634e-04	3.176484e+00	1.958661e-06	-1.589244e-03	3.058500e-08
9.896600519425634e-04	3.178040e+00	1.958025e-06	-1.591967e-03	1.710294e-08
9.996600519425634e-04	3.179571e+00	1.957385e-06	-1.590784e-03	2.729558e-08
1.009660051942563e-03	3.181079e+00	1.956740e-06	-1.593483e-03	1.388213e-08
1.019660051942563e-03	3.182562e+00	1.956091e-06	-1.592276e-03	2.398161e-08
1.029660051942563e-03	3.184022e+00	1.955438e-06	-1.594951e-03	1.063775e-08
1.039660051942563e-03	3.185459e+00	1.954782e-06	-1.593722e-03	2.067432e-08
1.049660051942563e-03	3.186874e+00	1.954123e-06	-1.596375e-03	7.348379e-09
1.059660051942563e-03	3.188268e+00	1.953460e-06	-1.595124e-03	1.734970e-08
1.069660051942563e-03	3.189640e+00	1.952795e-06	-1.597755e-03	4.045781e-09
1.079660051942563e-03	3.190992e+00	1.952128e-06	-1.596483e-03	1.401224e-08
1.089660051942563e-03	3.192323e+00	1.951458e-06	-1.599094e-03	7.338514e-10
1.099660051942563e-03	3.193634e+00	1.950787e-06	-1.597802e-03	1.066583e-08
1.109660051942563e-03	3.194926e+00	1.950114e-06	-1.600393e-03	-2.583769e-09
1.119660051942563e-03	3.196199e+00	1.949439e-06	-1.599082e-03	7.314034e-09
1.129660051942563e-03	3.197453e+00	1.948763e-06	-1.601655e-03	-5.881362e-09
1.139660051942563e-03	3.198689e+00	1.948087e-06	-1.600325e-03	3.938198e-09
1.149660051942563e-03	3.199908e+00	1.947409e-06	-1.602880e-03	-9.179271e-09
1.159660051942563e-03	3.201108e+00	1.946731e-06	-1.601533e-03	5.444381e-10
1.169660051942563e-03	3.202292e+00	1.946052e-06	-1.604071e-03	-1.245441e-08
1.179660051942563e-03	3.203459e+00	1.945373e-06	-1.602707e-03	-2.842830e-09
1.189660051942563e-03	3.204610e+00	1.944694e-06	-1.605228e-03	-1.572527e-08
1.199660051942563e-03	3.205745e+00	1.944015e-06	-1.603847e-03	-6.221145e-09
1.209660051942563e-03	3.206863e+00	1.943336e-06	-1.606353e-03	-1.898912e-08
1.219660051942563e-03	3.207967e+00	1.942658e-06	-1.604957e-03	-9.588032e-09
1.229660051942563e-03	3.209055e+00	1.941980e-06	-1.607447e-03	-2.226195e-08
1.239660051942563e-03	3.210129e+00	1.941303e-06	-1.606036e-03	-1.292321e-08
1.249660051942563e-03	3.211188e+00	1.940627e-06	-1.608511e-03	-2.552179e-08
1.259660051942563e-03	3.212233e+00	1.939951e-06	-1.607087e-03	-1.624371e-08
1.269660051942563e-03	3.213264e+00	1.939277e-06	-1.609548e-03	-2.876690e-08
1.279660051942563e-03	3.214281e+00	1.938604e-06	-1.608109e-03	-1.954749e-08
1.289660051942563e-03	3.215285e+00	1.937932e-06	-1.610557e-03	-3.199537e-08
1.299660051942563e-03	3.216276e+00	1.937261e-06	-1.609105e-03	-2.283274e-08
1.309660051942563e-03	3.217253e+00	1.936592e-06	-1.611540e-03	-3.520546e-08
1.319660051942563e-03	3.218219e+00	1.935925e-06	-1.610075e-03	-2.609780e-08
1.329660051942563e-03	3.219171e+00	1.935259e-06	-1.612497e-03	-3.839553e-08
1.339660051942563e-03	3.220112e+00	1.934595e-06	-1.611020e-03	-2.934116e-08
1.349660051942563e-03	3.221041e+00	1.933933e-06	-1.613430e-03	-4.156413e-08
1.359660051942563e-03	3.221958e+00	1.933273e-06	-1.611942e-03	-3.256141e-08
1.369660051942563e-03	3.222863e+00	1.932616e-06	-1.614340e-03	-4.470989e-08
1.379660051942563e-03	3.223757e+00	1.931960e-06	-1.612840e-03	-3.575727e-08
1.389660051942563e-03	3.224641e+00	1.931306e-06	-1.615227e-03	-4.783157e-08
1.399660051942563e-03	3.225513e+00	1.930655e-06	-1.613716e-03	-3.892758e-08
1.409660051942563e-03	3.226374e+00	1.930006e-06	-1.616093e-03	-5.092803e-08
1.419660051942563e-03	3.227225e+00	1.929360e-06	-1.614571e-03	-4.207127e-08
1.429660051942563e-03	3.228066e+00	1.928716e-06	-1.616937e-03	-5.399827e-08
1.439660051942563e-03	3.228897e+00	1.928074e-06	-1.615405e-03	-4.518740e-08
